T5548 000:003.636   SEGGER J-Link V8.34 Log File
T5548 000:003.737   DLL Compiled: May 14 2025 16:53:06
T5548 000:003.743   Logging started @ 2026-06-22 09:29
T5548 000:003.747   Process: C:\Keil_v5\UV4\UV4.exe
T5548 000:003.759 - 3.751ms 
T5548 000:003.766 JLINK_SetWarnOutHandler(...)
T5548 000:003.771 - 0.005ms 
T5548 000:003.776 JLINK_OpenEx(...)
T5548 000:006.839   Firmware: J-Link V9 compiled May  7 2021 16:26:12
T5548 000:007.483   Firmware: J-Link V9 compiled May  7 2021 16:26:12
T5548 000:007.606   Decompressing FW timestamp took 107 us
T5548 000:013.884   Hardware: V9.60
T5548 000:013.897   S/N: 69656020
T5548 000:013.903   OEM: SEGGER
T5548 000:013.910   Feature(s): RDI, GDB, FlashDL, FlashBP, JFlash
T5548 000:014.558   Bootloader: (FW returned invalid version)
T5548 000:015.262   TELNET listener socket opened on port 19021
T5548 000:015.345   WEBSRV WEBSRV_Init(): Starting webserver thread(s)
T5548 000:015.417   WEBSRV Webserver running on local port 19080
T5548 000:015.487   Looking for J-Link GUI Server exe at: C:\Keil_v5\ARM\Segger\JLinkGUIServer.exe
T5548 000:015.552   Looking for J-Link GUI Server exe at: C:\Program Files\SEGGER\JLink_V834\JLinkGUIServer.exe
T5548 000:015.581   Forking J-Link GUI Server: C:\Program Files\SEGGER\JLink_V834\JLinkGUIServer.exe
T5548 000:017.567   J-Link GUI Server info: "J-Link GUI server V8.34 "
T5548 000:017.841 - 14.061ms returns "O.K."
T5548 000:017.856 JLINK_GetEmuCaps()
T5548 000:017.862 - 0.004ms returns 0xB9FF7BBF
T5548 000:017.880 JLINK_TIF_GetAvailable(...)
T5548 000:018.207 - 0.326ms 
T5548 000:018.220 JLINK_SetErrorOutHandler(...)
T5548 000:018.225 - 0.005ms 
T5548 000:018.252 JLINK_ExecCommand("ProjectFile = "C:\Users\ALIENWARE\Documents\SPD1179\SPD1179_FW_V14_0_11\Project\0_Examples\Template\MDK-ARM\JLinkSettings.ini"", ...). 
T5548 000:029.500   Ref file found at: C:\Keil_v5\ARM\Segger\JLinkDevices.ref
T5548 000:029.587   REF file references invalid XML file: C:\Program Files\SEGGER\JLink_V834\JLinkDevices.xml
T5548 000:030.809 - 12.559ms returns 0x00
T5548 000:032.470 JLINK_ExecCommand("Device = ARMCM4_FP", ...). 
T5548 000:034.433   Device "CORTEX-M4" selected.
T5548 000:034.714 - 2.226ms returns 0x00
T5548 000:034.726 JLINK_ExecCommand("DisableConnectionTimeout", ...). 
T5548 000:034.741   ERROR: Unknown command
T5548 000:034.749 - 0.017ms returns 0x01
T5548 000:034.759 JLINK_GetHardwareVersion()
T5548 000:034.765 - 0.004ms returns 96000
T5548 000:034.770 JLINK_GetDLLVersion()
T5548 000:034.775 - 0.004ms returns 83400
T5548 000:034.780 JLINK_GetOEMString(...)
T5548 000:034.785 JLINK_GetFirmwareString(...)
T5548 000:034.789 - 0.004ms 
T5548 000:038.526 JLINK_GetDLLVersion()
T5548 000:038.542 - 0.015ms returns 83400
T5548 000:038.547 JLINK_GetCompileDateTime()
T5548 000:038.552 - 0.004ms 
T5548 000:039.383 JLINK_GetFirmwareString(...)
T5548 000:039.393 - 0.010ms 
T5548 000:040.298 JLINK_GetHardwareVersion()
T5548 000:040.314 - 0.016ms returns 96000
T5548 000:041.967 JLINK_GetSN()
T5548 000:041.978 - 0.011ms returns 69656020
T5548 000:042.903 JLINK_GetOEMString(...)
T5548 000:044.686 JLINK_TIF_Select(JLINKARM_TIF_SWD)
T5548 000:045.517 - 0.836ms returns 0x00
T5548 000:045.524 JLINK_HasError()
T5548 000:045.537 JLINK_SetSpeed(5000)
T5548 000:045.659 - 0.123ms 
T5548 000:045.665 JLINK_GetId()
T5548 000:047.414   Found SW-DP with ID 0x2BA01477
T5548 000:051.651   DPIDR: 0x2BA01477
T5548 000:052.548   CoreSight SoC-400 or earlier
T5548 000:053.419   Scanning AP map to find all available APs
T5548 000:055.537   AP[1]: Stopped AP scan as end of AP map has been reached
T5548 000:057.272   AP[0]: AHB-AP (IDR: 0x24770011, ADDR: 0x00000000)
T5548 000:058.249   Iterating through AP map to find AHB-AP to use
T5548 000:060.483   AP[0]: Core found
T5548 000:061.459   AP[0]: AHB-AP ROM base: 0xE00FF000
T5548 000:062.972   CPUID register: 0x410FC241. Implementer code: 0x41 (ARM)
T5548 000:063.881   Found Cortex-M4 r0p1, Little endian.
T5548 000:064.304   -- Max. mem block: 0x00010AA0
T5548 000:064.787   CPU_ReadMem(4 bytes @ 0xE000EDF0)
T5548 000:065.200   CPU_WriteMem(4 bytes @ 0xE000EDF0)
T5548 000:065.585   CPU_ReadMem(4 bytes @ 0xE0002000)
T5548 000:066.889   FPUnit: 6 code (BP) slots and 2 literal slots
T5548 000:066.903   CPU_ReadMem(4 bytes @ 0xE000EDFC)
T5548 000:067.242   CPU_WriteMem(4 bytes @ 0xE000EDFC)
T5548 000:067.627   CPU_ReadMem(4 bytes @ 0xE0001000)
T5548 000:067.978   CPU_WriteMem(4 bytes @ 0xE0001000)
T5548 000:068.356   CPU_ReadMem(4 bytes @ 0xE000ED88)
T5548 000:068.689   CPU_WriteMem(4 bytes @ 0xE000ED88)
T5548 000:069.042   CPU_ReadMem(4 bytes @ 0xE000ED88)
T5548 000:069.372   CPU_WriteMem(4 bytes @ 0xE000ED88)
T5548 000:070.739   CoreSight components:
T5548 000:071.712   ROMTbl[0] @ E00FF000
T5548 000:071.725   CPU_ReadMem(64 bytes @ 0xE00FF000)
T5548 000:072.477   CPU_ReadMem(32 bytes @ 0xE000EFE0)
T5548 000:073.907   [0][0]: E000E000 CID B105E00D PID 000BB00C SCS-M7
T5548 000:073.921   CPU_ReadMem(32 bytes @ 0xE0001FE0)
T5548 000:075.378   [0][1]: E0001000 CID B105E00D PID 003BB002 DWT
T5548 000:075.390   CPU_ReadMem(32 bytes @ 0xE0002FE0)
T5548 000:076.894   [0][2]: E0002000 CID B105E00D PID 002BB003 FPB
T5548 000:076.907   CPU_ReadMem(32 bytes @ 0xE0000FE0)
T5548 000:078.296   [0][3]: E0000000 CID B105E00D PID 003BB001 ITM
T5548 000:078.311   CPU_ReadMem(32 bytes @ 0xE0040FE0)
T5548 000:079.790   [0][4]: E0040000 CID B105900D PID 000BB9A1 TPIU
T5548 000:080.097 - 34.430ms returns 0x2BA01477
T5548 000:080.109 JLINK_GetDLLVersion()
T5548 000:080.114 - 0.004ms returns 83400
T5548 000:080.148 JLINK_CORE_GetFound()
T5548 000:080.153 - 0.005ms returns 0xE0000FF
T5548 000:080.159 JLINK_GetDebugInfo(0x100 = JLINKARM_ROM_TABLE_ADDR_INDEX)
T5548 000:080.163   Value=0xE00FF000
T5548 000:080.170 - 0.011ms returns 0
T5548 000:081.041 JLINK_GetDebugInfo(0x100 = JLINKARM_ROM_TABLE_ADDR_INDEX)
T5548 000:081.050   Value=0xE00FF000
T5548 000:081.057 - 0.016ms returns 0
T5548 000:081.062 JLINK_GetDebugInfo(0x101 = JLINKARM_DEBUG_INFO_ETM_ADDR_INDEX)
T5548 000:081.066   Value=0x00000000
T5548 000:081.072 - 0.010ms returns 0
T5548 000:081.078 JLINK_ReadMemEx(0xE0041FF0, 0x10 Bytes, Flags = 0x02000004)
T5548 000:081.109   CPU_ReadMem(16 bytes @ 0xE0041FF0)
T5548 000:081.606   Data:  00 00 00 00 00 00 00 00 00 00 00 00 00 00 00 00
T5548 000:081.613 - 0.535ms returns 16 (0x10)
T5548 000:081.619 JLINK_GetDebugInfo(0x102 = JLINKARM_DEBUG_INFO_MTB_ADDR_INDEX)
T5548 000:081.623   Value=0x00000000
T5548 000:081.630 - 0.010ms returns 0
T5548 000:081.635 JLINK_GetDebugInfo(0x103 = JLINKARM_DEBUG_INFO_TPIU_ADDR_INDEX)
T5548 000:081.639   Value=0xE0040000
T5548 000:081.645 - 0.010ms returns 0
T5548 000:081.650 JLINK_GetDebugInfo(0x104 = JLINKARM_DEBUG_INFO_ITM_ADDR_INDEX)
T5548 000:081.654   Value=0xE0000000
T5548 000:081.660 - 0.010ms returns 0
T5548 000:081.666 JLINK_GetDebugInfo(0x105 = JLINKARM_DEBUG_INFO_DWT_ADDR_INDEX)
T5548 000:081.670   Value=0xE0001000
T5548 000:081.676 - 0.010ms returns 0
T5548 000:081.681 JLINK_GetDebugInfo(0x106 = JLINKARM_DEBUG_INFO_FPB_ADDR_INDEX)
T5548 000:081.685   Value=0xE0002000
T5548 000:081.691 - 0.010ms returns 0
T5548 000:081.696 JLINK_GetDebugInfo(0x107 = JLINKARM_DEBUG_INFO_NVIC_ADDR_INDEX)
T5548 000:081.701   Value=0xE000E000
T5548 000:081.707 - 0.010ms returns 0
T5548 000:081.712 JLINK_GetDebugInfo(0x10C = JLINKARM_DEBUG_INFO_DBG_ADDR_INDEX)
T5548 000:081.716   Value=0xE000EDF0
T5548 000:081.722 - 0.010ms returns 0
T5548 000:081.727 JLINK_GetDebugInfo(0x01 = Unknown)
T5548 000:081.731   Value=0x00000001
T5548 000:081.738 - 0.010ms returns 0
T5548 000:081.743 JLINK_ReadMemU32(0xE000ED00, 0x1 Items)
T5548 000:081.748   CPU_ReadMem(4 bytes @ 0xE000ED00)
T5548 000:082.108   Data:  41 C2 0F 41
T5548 000:082.121   Debug reg: CPUID
T5548 000:082.128 - 0.385ms returns 1 (0x1)
T5548 000:082.134 JLINK_GetDebugInfo(0x10F = JLINKARM_DEBUG_INFO_HAS_CORTEX_M_SECURITY_EXT_INDEX)
T5548 000:082.139   Value=0x00000000
T5548 000:082.146 - 0.012ms returns 0
T5548 000:082.152 JLINK_HasError()
T5548 000:082.158 JLINK_SetResetType(JLINKARM_CM3_RESET_TYPE_NORMAL)
T5548 000:082.165 - 0.007ms returns JLINKARM_CM3_RESET_TYPE_NORMAL
T5548 000:082.172 JLINK_Reset()
T5548 000:082.181   JLINK_GetResetTypeDesc
T5548 000:082.186   - 0.004ms 
T5548 000:083.072   Reset type: NORMAL (https://wiki.segger.com/J-Link_Reset_Strategies)
T5548 000:083.089   CPU is running
T5548 000:083.097   CPU_WriteMem(4 bytes @ 0xE000EDF0)
T5548 000:083.486   CPU is running
T5548 000:083.495   CPU_WriteMem(4 bytes @ 0xE000EDFC)
T5548 000:084.781   Reset: Halt core after reset via DEMCR.VC_CORERESET.
T5548 000:088.023   Reset: Reset device via AIRCR.SYSRESETREQ.
T5548 000:088.046   CPU is running
T5548 000:088.056   CPU_WriteMem(4 bytes @ 0xE000ED0C)
T5548 000:141.121   CPU_ReadMem(4 bytes @ 0xE000EDF0)
T5548 000:141.478   CPU_ReadMem(4 bytes @ 0xE000EDF0)
T5548 000:145.176   CPU_WriteMem(4 bytes @ 0xE000EDFC)
T5548 000:151.505   CPU_ReadMem(4 bytes @ 0xE000EDF0)
T5548 000:155.346   CPU_WriteMem(4 bytes @ 0xE0002000)
T5548 000:155.788   CPU_ReadMem(4 bytes @ 0xE000EDFC)
T5548 000:156.221   CPU_ReadMem(4 bytes @ 0xE0001000)
T5548 000:156.658 - 74.485ms 
T5548 000:156.676 JLINK_Halt()
T5548 000:156.681 - 0.005ms returns 0x00
T5548 000:156.688 JLINK_ReadMemU32(0xE000EDF0, 0x1 Items)
T5548 000:156.698   CPU_ReadMem(4 bytes @ 0xE000EDF0)
T5548 000:157.121   Data:  03 00 03 00
T5548 000:157.134   Debug reg: DHCSR
T5548 000:157.140 - 0.452ms returns 1 (0x1)
T5548 000:157.190 JLINK_WriteU32(0xE000EDF0, 0xA05F0003)
T5548 000:157.206   Debug reg: DHCSR
T5548 000:157.395   CPU_WriteMem(4 bytes @ 0xE000EDF0)
T5548 000:157.755 - 0.567ms returns 0 (0x00000000)
T5548 000:157.762 JLINK_WriteU32(0xE000EDFC, 0x01000000)
T5548 000:157.766   Debug reg: DEMCR
T5548 000:157.775   CPU_WriteMem(4 bytes @ 0xE000EDFC)
T5548 000:158.143 - 0.380ms returns 0 (0x00000000)
T5548 000:164.349 JLINK_GetHWStatus(...)
T5548 000:164.553 - 0.206ms returns 0
T5548 000:167.009 JLINK_GetNumBPUnits(Type = 0xFFFFFF00)
T5548 000:167.018 - 0.009ms returns 0x06
T5548 000:167.023 JLINK_GetNumBPUnits(Type = 0xF0)
T5548 000:167.028 - 0.004ms returns 0x2000
T5548 000:167.032 JLINK_GetNumWPUnits()
T5548 000:167.037 - 0.004ms returns 4
T5548 000:169.537 JLINK_GetSpeed()
T5548 000:169.547 - 0.009ms returns 4000
T5548 000:171.093 JLINK_ReadMemU32(0xE000E004, 0x1 Items)
T5548 000:171.106   CPU_ReadMem(4 bytes @ 0xE000E004)
T5548 000:171.583   Data:  01 00 00 00
T5548 000:171.593 - 0.499ms returns 1 (0x1)
T5548 000:171.598 JLINK_ReadMemU32(0xE000E004, 0x1 Items)
T5548 000:171.603   CPU_ReadMem(4 bytes @ 0xE000E004)
T5548 000:171.958   Data:  01 00 00 00
T5548 000:171.965 - 0.367ms returns 1 (0x1)
T5548 000:171.971 JLINK_WriteMemEx(0xE0001000, 0x0000001C Bytes, Flags = 0x02000004)
T5548 000:171.976   Data:  01 00 00 00 00 00 00 00 00 00 00 00 00 00 00 00 ...
T5548 000:171.985   CPU_WriteMem(28 bytes @ 0xE0001000)
T5548 000:172.497 - 0.524ms returns 0x1C
T5548 000:172.509 JLINK_Halt()
T5548 000:172.514 - 0.004ms returns 0x00
T5548 000:172.518 JLINK_IsHalted()
T5548 000:172.523 - 0.005ms returns TRUE
T5548 000:174.986 JLINK_WriteMem(0x1FFFC000, 0x280 Bytes, ...)
T5548 000:174.993   Data:  00 BE 0A E0 0D 78 2D 06 68 40 08 24 40 00 00 D3 ...
T5548 000:175.151   CPU_WriteMem(640 bytes @ 0x1FFFC000)
T5548 000:179.245 - 4.259ms returns 0x280
T5548 000:179.279 JLINK_HasError()
T5548 000:179.286 JLINK_WriteReg(R0, 0x10000000)
T5548 000:179.292 - 0.006ms returns 0
T5548 000:179.297 JLINK_WriteReg(R1, 0x00B71B00)
T5548 000:179.301 - 0.004ms returns 0
T5548 000:179.306 JLINK_WriteReg(R2, 0x00000001)
T5548 000:179.311 - 0.004ms returns 0
T5548 000:179.315 JLINK_WriteReg(R3, 0x00000000)
T5548 000:179.320 - 0.004ms returns 0
T5548 000:179.324 JLINK_WriteReg(R4, 0x00000000)
T5548 000:179.329 - 0.004ms returns 0
T5548 000:179.334 JLINK_WriteReg(R5, 0x00000000)
T5548 000:179.338 - 0.004ms returns 0
T5548 000:179.343 JLINK_WriteReg(R6, 0x00000000)
T5548 000:179.347 - 0.004ms returns 0
T5548 000:179.352 JLINK_WriteReg(R7, 0x00000000)
T5548 000:179.356 - 0.004ms returns 0
T5548 000:179.822 JLINK_WriteReg(R8, 0x00000000)
T5548 000:179.832 - 0.470ms returns 0
T5548 000:179.837 JLINK_WriteReg(R9, 0x1FFFC26C)
T5548 000:179.842 - 0.004ms returns 0
T5548 000:179.846 JLINK_WriteReg(R10, 0x00000000)
T5548 000:179.851 - 0.004ms returns 0
T5548 000:179.856 JLINK_WriteReg(R11, 0x00000000)
T5548 000:179.860 - 0.004ms returns 0
T5548 000:179.865 JLINK_WriteReg(R12, 0x00000000)
T5548 000:179.869 - 0.004ms returns 0
T5548 000:179.874 JLINK_WriteReg(R13 (SP), 0x1FFFE000)
T5548 000:179.879 - 0.005ms returns 0
T5548 000:179.884 JLINK_WriteReg(R14, 0x1FFFC001)
T5548 000:179.888 - 0.004ms returns 0
T5548 000:179.893 JLINK_WriteReg(R15 (PC), 0x1FFFC050)
T5548 000:179.898 - 0.004ms returns 0
T5548 000:179.902 JLINK_WriteReg(XPSR, 0x01000000)
T5548 000:179.907 - 0.004ms returns 0
T5548 000:179.912 JLINK_WriteReg(MSP, 0x1FFFE000)
T5548 000:179.916 - 0.004ms returns 0
T5548 000:179.921 JLINK_WriteReg(PSP, 0x1FFFE000)
T5548 000:179.925 - 0.004ms returns 0
T5548 000:179.930 JLINK_WriteReg(CFBP, 0x00000000)
T5548 000:179.934 - 0.004ms returns 0
T5548 000:179.940 JLINK_SetBPEx(Addr = 0x1FFFC000, Type = 0xFFFFFFF2)
T5548 000:179.946 - 0.006ms returns 0x00000001
T5548 000:179.951 JLINK_Go()
T5548 000:179.957   CPU_WriteMem(4 bytes @ 0xE0002000)
T5548 000:180.373   CPU_ReadMem(4 bytes @ 0xE0001000)
T5548 000:180.832   CPU_WriteMem(4 bytes @ 0xE0002008)
T5548 000:180.844   CPU_WriteMem(4 bytes @ 0xE000200C)
T5548 000:180.850   CPU_WriteMem(4 bytes @ 0xE0002010)
T5548 000:180.856   CPU_WriteMem(4 bytes @ 0xE0002014)
T5548 000:180.862   CPU_WriteMem(4 bytes @ 0xE0002018)
T5548 000:180.868   CPU_WriteMem(4 bytes @ 0xE000201C)
T5548 000:182.500   CPU_WriteMem(4 bytes @ 0xE0001004)
T5548 000:187.161   Memory map 'after startup completion point' is active
T5548 000:187.175 - 7.223ms 
T5548 000:187.184 JLINK_IsHalted()
T5548 000:190.399 - 3.214ms returns TRUE
T5548 000:190.410 JLINK_ReadReg(R15 (PC))
T5548 000:190.415 - 0.005ms returns 0x1FFFC000
T5548 000:190.440 JLINK_ClrBPEx(BPHandle = 0x00000001)
T5548 000:190.446 - 0.005ms returns 0x00
T5548 000:190.451 JLINK_ReadReg(R0)
T5548 000:190.456 - 0.004ms returns 0x00000000
T5548 000:190.802 JLINK_HasError()
T5548 000:190.812 JLINK_WriteReg(R0, 0x10000000)
T5548 000:190.817 - 0.005ms returns 0
T5548 000:190.822 JLINK_WriteReg(R1, 0x00001000)
T5548 000:190.827 - 0.004ms returns 0
T5548 000:190.832 JLINK_WriteReg(R2, 0x000000FF)
T5548 000:190.836 - 0.004ms returns 0
T5548 000:190.841 JLINK_WriteReg(R3, 0x00000000)
T5548 000:190.846 - 0.005ms returns 0
T5548 000:190.851 JLINK_WriteReg(R4, 0x00000000)
T5548 000:190.855 - 0.004ms returns 0
T5548 000:190.860 JLINK_WriteReg(R5, 0x00000000)
T5548 000:190.864 - 0.004ms returns 0
T5548 000:190.869 JLINK_WriteReg(R6, 0x00000000)
T5548 000:190.873 - 0.004ms returns 0
T5548 000:190.877 JLINK_WriteReg(R7, 0x00000000)
T5548 000:190.882 - 0.004ms returns 0
T5548 000:190.886 JLINK_WriteReg(R8, 0x00000000)
T5548 000:190.891 - 0.004ms returns 0
T5548 000:190.895 JLINK_WriteReg(R9, 0x1FFFC26C)
T5548 000:190.900 - 0.004ms returns 0
T5548 000:190.904 JLINK_WriteReg(R10, 0x00000000)
T5548 000:190.908 - 0.004ms returns 0
T5548 000:190.913 JLINK_WriteReg(R11, 0x00000000)
T5548 000:190.917 - 0.004ms returns 0
T5548 000:190.922 JLINK_WriteReg(R12, 0x00000000)
T5548 000:190.926 - 0.004ms returns 0
T5548 000:190.932 JLINK_WriteReg(R13 (SP), 0x1FFFE000)
T5548 000:190.936 - 0.005ms returns 0
T5548 000:190.941 JLINK_WriteReg(R14, 0x1FFFC001)
T5548 000:190.945 - 0.004ms returns 0
T5548 000:190.950 JLINK_WriteReg(R15 (PC), 0x1FFFC184)
T5548 000:190.954 - 0.004ms returns 0
T5548 000:190.959 JLINK_WriteReg(XPSR, 0x01000000)
T5548 000:190.963 - 0.004ms returns 0
T5548 000:190.968 JLINK_WriteReg(MSP, 0x1FFFE000)
T5548 000:190.972 - 0.004ms returns 0
T5548 000:190.976 JLINK_WriteReg(PSP, 0x1FFFE000)
T5548 000:190.981 - 0.004ms returns 0
T5548 000:190.985 JLINK_WriteReg(CFBP, 0x00000000)
T5548 000:190.990 - 0.004ms returns 0
T5548 000:190.995 JLINK_SetBPEx(Addr = 0x1FFFC000, Type = 0xFFFFFFF2)
T5548 000:191.035 - 0.040ms returns 0x00000002
T5548 000:191.042 JLINK_Go()
T5548 000:191.048   CPU_WriteMem(4 bytes @ 0xE0002000)
T5548 000:191.441   CPU_ReadMem(4 bytes @ 0xE0001000)
T5548 000:194.961 - 3.917ms 
T5548 000:194.981 JLINK_IsHalted()
T5548 000:198.177 - 3.196ms returns TRUE
T5548 000:198.184 JLINK_ReadReg(R15 (PC))
T5548 000:198.189 - 0.005ms returns 0x1FFFC000
T5548 000:198.193 JLINK_ClrBPEx(BPHandle = 0x00000002)
T5548 000:198.198 - 0.004ms returns 0x00
T5548 000:198.203 JLINK_ReadReg(R0)
T5548 000:198.207 - 0.004ms returns 0x00000001
T5548 000:198.212 JLINK_HasError()
T5548 000:198.217 JLINK_WriteReg(R0, 0x10000000)
T5548 000:198.222 - 0.004ms returns 0
T5548 000:198.227 JLINK_WriteReg(R1, 0x00001000)
T5548 000:198.231 - 0.004ms returns 0
T5548 000:198.236 JLINK_WriteReg(R2, 0x000000FF)
T5548 000:198.240 - 0.004ms returns 0
T5548 000:198.244 JLINK_WriteReg(R3, 0x00000000)
T5548 000:198.249 - 0.004ms returns 0
T5548 000:198.253 JLINK_WriteReg(R4, 0x00000000)
T5548 000:198.258 - 0.004ms returns 0
T5548 000:198.262 JLINK_WriteReg(R5, 0x00000000)
T5548 000:198.266 - 0.004ms returns 0
T5548 000:198.271 JLINK_WriteReg(R6, 0x00000000)
T5548 000:198.275 - 0.004ms returns 0
T5548 000:198.280 JLINK_WriteReg(R7, 0x00000000)
T5548 000:198.284 - 0.004ms returns 0
T5548 000:198.289 JLINK_WriteReg(R8, 0x00000000)
T5548 000:198.293 - 0.004ms returns 0
T5548 000:198.298 JLINK_WriteReg(R9, 0x1FFFC26C)
T5548 000:198.302 - 0.004ms returns 0
T5548 000:198.307 JLINK_WriteReg(R10, 0x00000000)
T5548 000:198.311 - 0.004ms returns 0
T5548 000:198.316 JLINK_WriteReg(R11, 0x00000000)
T5548 000:198.320 - 0.004ms returns 0
T5548 000:198.324 JLINK_WriteReg(R12, 0x00000000)
T5548 000:198.329 - 0.004ms returns 0
T5548 000:198.334 JLINK_WriteReg(R13 (SP), 0x1FFFE000)
T5548 000:198.338 - 0.004ms returns 0
T5548 000:198.343 JLINK_WriteReg(R14, 0x1FFFC001)
T5548 000:198.347 - 0.004ms returns 0
T5548 000:198.351 JLINK_WriteReg(R15 (PC), 0x1FFFC198)
T5548 000:198.356 - 0.004ms returns 0
T5548 000:198.361 JLINK_WriteReg(XPSR, 0x01000000)
T5548 000:198.365 - 0.004ms returns 0
T5548 000:198.369 JLINK_WriteReg(MSP, 0x1FFFE000)
T5548 000:198.374 - 0.004ms returns 0
T5548 000:198.378 JLINK_WriteReg(PSP, 0x1FFFE000)
T5548 000:198.383 - 0.004ms returns 0
T5548 000:198.387 JLINK_WriteReg(CFBP, 0x00000000)
T5548 000:198.392 - 0.004ms returns 0
T5548 000:198.396 JLINK_SetBPEx(Addr = 0x1FFFC000, Type = 0xFFFFFFF2)
T5548 000:198.401 - 0.004ms returns 0x00000003
T5548 000:198.406 JLINK_Go()
T5548 000:198.412   CPU_WriteMem(4 bytes @ 0xE0002000)
T5548 000:198.871   CPU_ReadMem(4 bytes @ 0xE0001000)
T5548 000:202.322 - 3.915ms 
T5548 000:202.339 JLINK_IsHalted()
T5548 000:202.657 - 0.318ms returns FALSE
T5548 000:202.663 JLINK_HasError()
T5548 000:208.472 JLINK_IsHalted()
T5548 000:211.642 - 3.176ms returns TRUE
T5548 000:211.648 JLINK_ReadReg(R15 (PC))
T5548 000:211.653 - 0.005ms returns 0x1FFFC000
T5548 000:211.658 JLINK_ClrBPEx(BPHandle = 0x00000003)
T5548 000:211.663 - 0.004ms returns 0x00
T5548 000:211.668 JLINK_ReadReg(R0)
T5548 000:211.672 - 0.004ms returns 0x00000000
T5548 000:211.833 JLINK_HasError()
T5548 000:211.840 JLINK_WriteReg(R0, 0x00000001)
T5548 000:211.845 - 0.005ms returns 0
T5548 000:211.850 JLINK_WriteReg(R1, 0x00001000)
T5548 000:211.854 - 0.004ms returns 0
T5548 000:211.859 JLINK_WriteReg(R2, 0x000000FF)
T5548 000:211.863 - 0.004ms returns 0
T5548 000:211.868 JLINK_WriteReg(R3, 0x00000000)
T5548 000:211.872 - 0.004ms returns 0
T5548 000:211.877 JLINK_WriteReg(R4, 0x00000000)
T5548 000:211.881 - 0.004ms returns 0
T5548 000:211.886 JLINK_WriteReg(R5, 0x00000000)
T5548 000:211.890 - 0.004ms returns 0
T5548 000:211.895 JLINK_WriteReg(R6, 0x00000000)
T5548 000:211.899 - 0.004ms returns 0
T5548 000:211.904 JLINK_WriteReg(R7, 0x00000000)
T5548 000:211.908 - 0.004ms returns 0
T5548 000:211.913 JLINK_WriteReg(R8, 0x00000000)
T5548 000:211.917 - 0.004ms returns 0
T5548 000:211.922 JLINK_WriteReg(R9, 0x1FFFC26C)
T5548 000:211.926 - 0.004ms returns 0
T5548 000:211.933 JLINK_WriteReg(R10, 0x00000000)
T5548 000:211.938 - 0.005ms returns 0
T5548 000:211.943 JLINK_WriteReg(R11, 0x00000000)
T5548 000:211.947 - 0.004ms returns 0
T5548 000:211.952 JLINK_WriteReg(R12, 0x00000000)
T5548 000:211.956 - 0.004ms returns 0
T5548 000:211.961 JLINK_WriteReg(R13 (SP), 0x1FFFE000)
T5548 000:211.965 - 0.004ms returns 0
T5548 000:211.970 JLINK_WriteReg(R14, 0x1FFFC001)
T5548 000:211.974 - 0.004ms returns 0
T5548 000:211.979 JLINK_WriteReg(R15 (PC), 0x1FFFC180)
T5548 000:211.983 - 0.004ms returns 0
T5548 000:211.988 JLINK_WriteReg(XPSR, 0x01000000)
T5548 000:211.992 - 0.004ms returns 0
T5548 000:211.997 JLINK_WriteReg(MSP, 0x1FFFE000)
T5548 000:212.001 - 0.004ms returns 0
T5548 000:212.006 JLINK_WriteReg(PSP, 0x1FFFE000)
T5548 000:212.010 - 0.004ms returns 0
T5548 000:212.015 JLINK_WriteReg(CFBP, 0x00000000)
T5548 000:212.019 - 0.004ms returns 0
T5548 000:212.024 JLINK_SetBPEx(Addr = 0x1FFFC000, Type = 0xFFFFFFF2)
T5548 000:212.029 - 0.005ms returns 0x00000004
T5548 000:212.034 JLINK_Go()
T5548 000:212.040   CPU_WriteMem(4 bytes @ 0xE0002000)
T5548 000:212.428   CPU_ReadMem(4 bytes @ 0xE0001000)
T5548 000:215.985 - 3.950ms 
T5548 000:215.995 JLINK_IsHalted()
T5548 000:219.137 - 3.140ms returns TRUE
T5548 000:219.159 JLINK_ReadReg(R15 (PC))
T5548 000:219.164 - 0.004ms returns 0x1FFFC000
T5548 000:219.188 JLINK_ClrBPEx(BPHandle = 0x00000004)
T5548 000:219.193 - 0.005ms returns 0x00
T5548 000:219.198 JLINK_ReadReg(R0)
T5548 000:219.202 - 0.004ms returns 0x00000000
T5548 000:274.797 JLINK_WriteMem(0x1FFFC000, 0x280 Bytes, ...)
T5548 000:274.809   Data:  00 BE 0A E0 0D 78 2D 06 68 40 08 24 40 00 00 D3 ...
T5548 000:274.826   CPU_WriteMem(640 bytes @ 0x1FFFC000)
T5548 000:279.090 - 4.290ms returns 0x280
T5548 000:279.134 JLINK_HasError()
T5548 000:279.141 JLINK_WriteReg(R0, 0x10000000)
T5548 000:279.147 - 0.006ms returns 0
T5548 000:279.152 JLINK_WriteReg(R1, 0x00B71B00)
T5548 000:279.156 - 0.004ms returns 0
T5548 000:279.160 JLINK_WriteReg(R2, 0x00000002)
T5548 000:279.165 - 0.004ms returns 0
T5548 000:279.169 JLINK_WriteReg(R3, 0x00000000)
T5548 000:279.174 - 0.004ms returns 0
T5548 000:279.178 JLINK_WriteReg(R4, 0x00000000)
T5548 000:279.182 - 0.004ms returns 0
T5548 000:279.187 JLINK_WriteReg(R5, 0x00000000)
T5548 000:279.191 - 0.004ms returns 0
T5548 000:279.196 JLINK_WriteReg(R6, 0x00000000)
T5548 000:279.200 - 0.004ms returns 0
T5548 000:279.204 JLINK_WriteReg(R7, 0x00000000)
T5548 000:279.208 - 0.004ms returns 0
T5548 000:279.213 JLINK_WriteReg(R8, 0x00000000)
T5548 000:279.218 - 0.004ms returns 0
T5548 000:279.222 JLINK_WriteReg(R9, 0x1FFFC26C)
T5548 000:279.226 - 0.004ms returns 0
T5548 000:279.231 JLINK_WriteReg(R10, 0x00000000)
T5548 000:279.235 - 0.004ms returns 0
T5548 000:279.240 JLINK_WriteReg(R11, 0x00000000)
T5548 000:279.244 - 0.004ms returns 0
T5548 000:279.248 JLINK_WriteReg(R12, 0x00000000)
T5548 000:279.252 - 0.004ms returns 0
T5548 000:279.258 JLINK_WriteReg(R13 (SP), 0x1FFFE000)
T5548 000:279.263 - 0.005ms returns 0
T5548 000:279.267 JLINK_WriteReg(R14, 0x1FFFC001)
T5548 000:279.272 - 0.004ms returns 0
T5548 000:279.277 JLINK_WriteReg(R15 (PC), 0x1FFFC050)
T5548 000:279.281 - 0.005ms returns 0
T5548 000:279.286 JLINK_WriteReg(XPSR, 0x01000000)
T5548 000:279.290 - 0.004ms returns 0
T5548 000:279.294 JLINK_WriteReg(MSP, 0x1FFFE000)
T5548 000:279.299 - 0.004ms returns 0
T5548 000:279.303 JLINK_WriteReg(PSP, 0x1FFFE000)
T5548 000:279.307 - 0.004ms returns 0
T5548 000:279.312 JLINK_WriteReg(CFBP, 0x00000000)
T5548 000:279.316 - 0.004ms returns 0
T5548 000:279.322 JLINK_SetBPEx(Addr = 0x1FFFC000, Type = 0xFFFFFFF2)
T5548 000:279.328 - 0.006ms returns 0x00000005
T5548 000:279.332 JLINK_Go()
T5548 000:279.339   CPU_WriteMem(4 bytes @ 0xE0002000)
T5548 000:279.870   CPU_ReadMem(4 bytes @ 0xE0001000)
T5548 000:283.518 - 4.183ms 
T5548 000:283.533 JLINK_IsHalted()
T5548 000:286.879 - 3.345ms returns TRUE
T5548 000:286.889 JLINK_ReadReg(R15 (PC))
T5548 000:286.894 - 0.005ms returns 0x1FFFC000
T5548 000:286.903 JLINK_ClrBPEx(BPHandle = 0x00000005)
T5548 000:286.910 - 0.007ms returns 0x00
T5548 000:286.915 JLINK_ReadReg(R0)
T5548 000:286.919 - 0.004ms returns 0x00000000
T5548 000:287.069 JLINK_WriteMem(0x1FFFC280, 0x180 Bytes, ...)
T5548 000:287.075   Data:  98 C8 FF 1F B9 01 00 10 C1 07 00 10 7D 07 00 10 ...
T5548 000:287.086   CPU_WriteMem(384 bytes @ 0x1FFFC280)
T5548 000:289.892 - 2.821ms returns 0x180
T5548 000:289.913 JLINK_WriteMem(0x1FFFC400, 0x80 Bytes, ...)
T5548 000:289.917   Data:  52 07 28 BF 30 C1 48 BF 0B 60 70 47 1F B5 00 F0 ...
T5548 000:289.924   CPU_WriteMem(128 bytes @ 0x1FFFC400)
T5548 000:291.249 - 1.335ms returns 0x80
T5548 000:291.259 JLINK_HasError()
T5548 000:291.264 JLINK_WriteReg(R0, 0x10000000)
T5548 000:291.269 - 0.004ms returns 0
T5548 000:291.274 JLINK_WriteReg(R1, 0x00000200)
T5548 000:291.278 - 0.004ms returns 0
T5548 000:291.283 JLINK_WriteReg(R2, 0x1FFFC280)
T5548 000:291.287 - 0.004ms returns 0
T5548 000:291.292 JLINK_WriteReg(R3, 0x00000000)
T5548 000:291.296 - 0.004ms returns 0
T5548 000:291.301 JLINK_WriteReg(R4, 0x00000000)
T5548 000:291.305 - 0.004ms returns 0
T5548 000:291.310 JLINK_WriteReg(R5, 0x00000000)
T5548 000:291.314 - 0.004ms returns 0
T5548 000:291.319 JLINK_WriteReg(R6, 0x00000000)
T5548 000:291.323 - 0.004ms returns 0
T5548 000:291.328 JLINK_WriteReg(R7, 0x00000000)
T5548 000:291.332 - 0.004ms returns 0
T5548 000:291.337 JLINK_WriteReg(R8, 0x00000000)
T5548 000:291.341 - 0.004ms returns 0
T5548 000:291.346 JLINK_WriteReg(R9, 0x1FFFC26C)
T5548 000:291.350 - 0.004ms returns 0
T5548 000:291.355 JLINK_WriteReg(R10, 0x00000000)
T5548 000:291.359 - 0.004ms returns 0
T5548 000:291.364 JLINK_WriteReg(R11, 0x00000000)
T5548 000:291.368 - 0.004ms returns 0
T5548 000:291.373 JLINK_WriteReg(R12, 0x00000000)
T5548 000:291.377 - 0.004ms returns 0
T5548 000:291.382 JLINK_WriteReg(R13 (SP), 0x1FFFE000)
T5548 000:291.387 - 0.005ms returns 0
T5548 000:291.391 JLINK_WriteReg(R14, 0x1FFFC001)
T5548 000:291.395 - 0.004ms returns 0
T5548 000:291.400 JLINK_WriteReg(R15 (PC), 0x1FFFC1A8)
T5548 000:291.404 - 0.004ms returns 0
T5548 000:291.409 JLINK_WriteReg(XPSR, 0x01000000)
T5548 000:291.413 - 0.004ms returns 0
T5548 000:291.418 JLINK_WriteReg(MSP, 0x1FFFE000)
T5548 000:291.422 - 0.004ms returns 0
T5548 000:291.427 JLINK_WriteReg(PSP, 0x1FFFE000)
T5548 000:291.431 - 0.004ms returns 0
T5548 000:291.436 JLINK_WriteReg(CFBP, 0x00000000)
T5548 000:291.440 - 0.004ms returns 0
T5548 000:291.445 JLINK_SetBPEx(Addr = 0x1FFFC000, Type = 0xFFFFFFF2)
T5548 000:291.450 - 0.004ms returns 0x00000006
T5548 000:291.455 JLINK_Go()
T5548 000:291.460   CPU_WriteMem(4 bytes @ 0xE0002000)
T5548 000:291.946   CPU_ReadMem(4 bytes @ 0xE0001000)
T5548 000:295.680 - 4.224ms 
T5548 000:295.700 JLINK_IsHalted()
T5548 000:296.143 - 0.443ms returns FALSE
T5548 000:296.157 JLINK_HasError()
T5548 000:299.708 JLINK_IsHalted()
T5548 000:302.853 - 3.146ms returns TRUE
T5548 000:302.863 JLINK_ReadReg(R15 (PC))
T5548 000:302.868 - 0.005ms returns 0x1FFFC000
T5548 000:302.873 JLINK_ClrBPEx(BPHandle = 0x00000006)
T5548 000:302.878 - 0.005ms returns 0x00
T5548 000:302.883 JLINK_ReadReg(R0)
T5548 000:302.887 - 0.004ms returns 0x00000000
T5548 000:303.128 JLINK_WriteMem(0x1FFFC280, 0x180 Bytes, ...)
T5548 000:303.135   Data:  19 01 00 10 98 C0 FF 1F 98 C8 FF 1F 98 C4 FF 1F ...
T5548 000:303.146   CPU_WriteMem(384 bytes @ 0x1FFFC280)
T5548 000:305.785 - 2.657ms returns 0x180
T5548 000:305.793 JLINK_WriteMem(0x1FFFC400, 0x80 Bytes, ...)
T5548 000:305.797   Data:  05 00 69 46 53 46 20 F0 07 00 85 46 18 B0 20 B5 ...
T5548 000:305.806   CPU_WriteMem(128 bytes @ 0x1FFFC400)
T5548 000:307.107 - 1.313ms returns 0x80
T5548 000:307.128 JLINK_HasError()
T5548 000:307.133 JLINK_WriteReg(R0, 0x10000200)
T5548 000:307.138 - 0.005ms returns 0
T5548 000:307.143 JLINK_WriteReg(R1, 0x00000200)
T5548 000:307.148 - 0.004ms returns 0
T5548 000:307.153 JLINK_WriteReg(R2, 0x1FFFC280)
T5548 000:307.157 - 0.004ms returns 0
T5548 000:307.162 JLINK_WriteReg(R3, 0x00000000)
T5548 000:307.169 - 0.007ms returns 0
T5548 000:307.176 JLINK_WriteReg(R4, 0x00000000)
T5548 000:307.180 - 0.004ms returns 0
T5548 000:307.185 JLINK_WriteReg(R5, 0x00000000)
T5548 000:307.189 - 0.004ms returns 0
T5548 000:307.194 JLINK_WriteReg(R6, 0x00000000)
T5548 000:307.198 - 0.004ms returns 0
T5548 000:307.203 JLINK_WriteReg(R7, 0x00000000)
T5548 000:307.207 - 0.004ms returns 0
T5548 000:307.213 JLINK_WriteReg(R8, 0x00000000)
T5548 000:307.217 - 0.004ms returns 0
T5548 000:307.222 JLINK_WriteReg(R9, 0x1FFFC26C)
T5548 000:307.226 - 0.004ms returns 0
T5548 000:307.231 JLINK_WriteReg(R10, 0x00000000)
T5548 000:307.235 - 0.004ms returns 0
T5548 000:307.240 JLINK_WriteReg(R11, 0x00000000)
T5548 000:307.244 - 0.004ms returns 0
T5548 000:307.249 JLINK_WriteReg(R12, 0x00000000)
T5548 000:307.254 - 0.004ms returns 0
T5548 000:307.258 JLINK_WriteReg(R13 (SP), 0x1FFFE000)
T5548 000:307.263 - 0.004ms returns 0
T5548 000:307.268 JLINK_WriteReg(R14, 0x1FFFC001)
T5548 000:307.272 - 0.004ms returns 0
T5548 000:307.277 JLINK_WriteReg(R15 (PC), 0x1FFFC1A8)
T5548 000:307.281 - 0.004ms returns 0
T5548 000:307.286 JLINK_WriteReg(XPSR, 0x01000000)
T5548 000:307.291 - 0.004ms returns 0
T5548 000:307.295 JLINK_WriteReg(MSP, 0x1FFFE000)
T5548 000:307.300 - 0.004ms returns 0
T5548 000:307.305 JLINK_WriteReg(PSP, 0x1FFFE000)
T5548 000:307.309 - 0.004ms returns 0
T5548 000:307.314 JLINK_WriteReg(CFBP, 0x00000000)
T5548 000:307.318 - 0.004ms returns 0
T5548 000:307.323 JLINK_SetBPEx(Addr = 0x1FFFC000, Type = 0xFFFFFFF2)
T5548 000:307.328 - 0.005ms returns 0x00000007
T5548 000:307.333 JLINK_Go()
T5548 000:307.339   CPU_WriteMem(4 bytes @ 0xE0002000)
T5548 000:307.710   CPU_ReadMem(4 bytes @ 0xE0001000)
T5548 000:311.141 - 3.806ms 
T5548 000:311.150 JLINK_IsHalted()
T5548 000:311.491 - 0.339ms returns FALSE
T5548 000:311.500 JLINK_HasError()
T5548 000:312.695 JLINK_IsHalted()
T5548 000:313.071 - 0.375ms returns FALSE
T5548 000:313.081 JLINK_HasError()
T5548 000:314.695 JLINK_IsHalted()
T5548 000:317.823 - 3.129ms returns TRUE
T5548 000:317.833 JLINK_ReadReg(R15 (PC))
T5548 000:317.837 - 0.004ms returns 0x1FFFC000
T5548 000:317.843 JLINK_ClrBPEx(BPHandle = 0x00000007)
T5548 000:317.847 - 0.004ms returns 0x00
T5548 000:317.852 JLINK_ReadReg(R0)
T5548 000:317.856 - 0.004ms returns 0x00000000
T5548 000:318.071 JLINK_WriteMem(0x1FFFC280, 0x180 Bytes, ...)
T5548 000:318.078   Data:  34 C0 FF 1F 70 47 70 47 70 47 70 47 70 47 70 47 ...
T5548 000:318.087   CPU_WriteMem(384 bytes @ 0x1FFFC280)
T5548 000:320.779 - 2.706ms returns 0x180
T5548 000:320.799 JLINK_WriteMem(0x1FFFC400, 0x80 Bytes, ...)
T5548 000:320.803   Data:  BD E8 F8 8F 00 E1 F5 05 00 12 7A 00 00 24 F4 00 ...
T5548 000:320.810   CPU_WriteMem(128 bytes @ 0x1FFFC400)
T5548 000:322.111 - 1.311ms returns 0x80
T5548 000:322.136 JLINK_HasError()
T5548 000:322.161 JLINK_WriteReg(R0, 0x10000400)
T5548 000:322.166 - 0.005ms returns 0
T5548 000:322.171 JLINK_WriteReg(R1, 0x00000200)
T5548 000:322.175 - 0.004ms returns 0
T5548 000:322.180 JLINK_WriteReg(R2, 0x1FFFC280)
T5548 000:322.184 - 0.004ms returns 0
T5548 000:322.189 JLINK_WriteReg(R3, 0x00000000)
T5548 000:322.193 - 0.004ms returns 0
T5548 000:322.197 JLINK_WriteReg(R4, 0x00000000)
T5548 000:322.202 - 0.004ms returns 0
T5548 000:322.206 JLINK_WriteReg(R5, 0x00000000)
T5548 000:322.210 - 0.004ms returns 0
T5548 000:322.215 JLINK_WriteReg(R6, 0x00000000)
T5548 000:322.219 - 0.004ms returns 0
T5548 000:322.223 JLINK_WriteReg(R7, 0x00000000)
T5548 000:322.228 - 0.004ms returns 0
T5548 000:322.232 JLINK_WriteReg(R8, 0x00000000)
T5548 000:322.236 - 0.004ms returns 0
T5548 000:322.241 JLINK_WriteReg(R9, 0x1FFFC26C)
T5548 000:322.245 - 0.004ms returns 0
T5548 000:322.250 JLINK_WriteReg(R10, 0x00000000)
T5548 000:322.254 - 0.004ms returns 0
T5548 000:322.258 JLINK_WriteReg(R11, 0x00000000)
T5548 000:322.262 - 0.004ms returns 0
T5548 000:322.267 JLINK_WriteReg(R12, 0x00000000)
T5548 000:322.271 - 0.004ms returns 0
T5548 000:322.276 JLINK_WriteReg(R13 (SP), 0x1FFFE000)
T5548 000:322.310 - 0.034ms returns 0
T5548 000:322.316 JLINK_WriteReg(R14, 0x1FFFC001)
T5548 000:322.320 - 0.004ms returns 0
T5548 000:322.325 JLINK_WriteReg(R15 (PC), 0x1FFFC1A8)
T5548 000:322.329 - 0.004ms returns 0
T5548 000:322.333 JLINK_WriteReg(XPSR, 0x01000000)
T5548 000:322.338 - 0.004ms returns 0
T5548 000:322.342 JLINK_WriteReg(MSP, 0x1FFFE000)
T5548 000:322.346 - 0.004ms returns 0
T5548 000:322.351 JLINK_WriteReg(PSP, 0x1FFFE000)
T5548 000:322.355 - 0.004ms returns 0
T5548 000:322.360 JLINK_WriteReg(CFBP, 0x00000000)
T5548 000:322.364 - 0.004ms returns 0
T5548 000:322.369 JLINK_SetBPEx(Addr = 0x1FFFC000, Type = 0xFFFFFFF2)
T5548 000:322.373 - 0.004ms returns 0x00000008
T5548 000:322.378 JLINK_Go()
T5548 000:322.383   CPU_WriteMem(4 bytes @ 0xE0002000)
T5548 000:322.770   CPU_ReadMem(4 bytes @ 0xE0001000)
T5548 000:326.294 - 3.915ms 
T5548 000:326.311 JLINK_IsHalted()
T5548 000:326.732 - 0.419ms returns FALSE
T5548 000:326.737 JLINK_HasError()
T5548 000:328.690 JLINK_IsHalted()
T5548 000:331.825 - 3.134ms returns TRUE
T5548 000:331.834 JLINK_ReadReg(R15 (PC))
T5548 000:331.839 - 0.005ms returns 0x1FFFC000
T5548 000:331.844 JLINK_ClrBPEx(BPHandle = 0x00000008)
T5548 000:331.849 - 0.004ms returns 0x00
T5548 000:331.853 JLINK_ReadReg(R0)
T5548 000:331.858 - 0.004ms returns 0x00000000
T5548 000:332.067 JLINK_WriteMem(0x1FFFC280, 0x180 Bytes, ...)
T5548 000:332.073   Data:  D2 F8 24 12 C9 B2 49 1C A8 42 04 D1 D2 F8 2C 02 ...
T5548 000:332.083   CPU_WriteMem(384 bytes @ 0x1FFFC280)
T5548 000:334.820 - 2.752ms returns 0x180
T5548 000:334.833 JLINK_WriteMem(0x1FFFC400, 0x80 Bytes, ...)
T5548 000:334.837   Data:  FF F7 C0 FD 10 BD 00 00 48 61 72 64 46 61 75 6C ...
T5548 000:334.844   CPU_WriteMem(128 bytes @ 0x1FFFC400)
T5548 000:336.063 - 1.228ms returns 0x80
T5548 000:336.081 JLINK_HasError()
T5548 000:336.087 JLINK_WriteReg(R0, 0x10000600)
T5548 000:336.091 - 0.004ms returns 0
T5548 000:336.096 JLINK_WriteReg(R1, 0x00000200)
T5548 000:336.100 - 0.004ms returns 0
T5548 000:336.105 JLINK_WriteReg(R2, 0x1FFFC280)
T5548 000:336.109 - 0.004ms returns 0
T5548 000:336.113 JLINK_WriteReg(R3, 0x00000000)
T5548 000:336.117 - 0.004ms returns 0
T5548 000:336.122 JLINK_WriteReg(R4, 0x00000000)
T5548 000:336.126 - 0.004ms returns 0
T5548 000:336.131 JLINK_WriteReg(R5, 0x00000000)
T5548 000:336.135 - 0.004ms returns 0
T5548 000:336.139 JLINK_WriteReg(R6, 0x00000000)
T5548 000:336.144 - 0.004ms returns 0
T5548 000:336.148 JLINK_WriteReg(R7, 0x00000000)
T5548 000:336.152 - 0.004ms returns 0
T5548 000:336.157 JLINK_WriteReg(R8, 0x00000000)
T5548 000:336.161 - 0.004ms returns 0
T5548 000:336.165 JLINK_WriteReg(R9, 0x1FFFC26C)
T5548 000:336.170 - 0.004ms returns 0
T5548 000:336.174 JLINK_WriteReg(R10, 0x00000000)
T5548 000:336.178 - 0.004ms returns 0
T5548 000:336.183 JLINK_WriteReg(R11, 0x00000000)
T5548 000:336.187 - 0.004ms returns 0
T5548 000:336.192 JLINK_WriteReg(R12, 0x00000000)
T5548 000:336.196 - 0.004ms returns 0
T5548 000:336.200 JLINK_WriteReg(R13 (SP), 0x1FFFE000)
T5548 000:336.205 - 0.004ms returns 0
T5548 000:336.209 JLINK_WriteReg(R14, 0x1FFFC001)
T5548 000:336.213 - 0.004ms returns 0
T5548 000:336.218 JLINK_WriteReg(R15 (PC), 0x1FFFC1A8)
T5548 000:336.222 - 0.004ms returns 0
T5548 000:336.227 JLINK_WriteReg(XPSR, 0x01000000)
T5548 000:336.231 - 0.004ms returns 0
T5548 000:336.235 JLINK_WriteReg(MSP, 0x1FFFE000)
T5548 000:336.240 - 0.004ms returns 0
T5548 000:336.244 JLINK_WriteReg(PSP, 0x1FFFE000)
T5548 000:336.248 - 0.004ms returns 0
T5548 000:336.253 JLINK_WriteReg(CFBP, 0x00000000)
T5548 000:336.257 - 0.004ms returns 0
T5548 000:336.262 JLINK_SetBPEx(Addr = 0x1FFFC000, Type = 0xFFFFFFF2)
T5548 000:336.267 - 0.004ms returns 0x00000009
T5548 000:336.271 JLINK_Go()
T5548 000:336.276   CPU_WriteMem(4 bytes @ 0xE0002000)
T5548 000:336.662   CPU_ReadMem(4 bytes @ 0xE0001000)
T5548 000:340.261 - 3.988ms 
T5548 000:340.270 JLINK_IsHalted()
T5548 000:340.679 - 0.408ms returns FALSE
T5548 000:340.686 JLINK_HasError()
T5548 000:342.058 JLINK_IsHalted()
T5548 000:342.446 - 0.387ms returns FALSE
T5548 000:342.456 JLINK_HasError()
T5548 000:343.988 JLINK_IsHalted()
T5548 000:347.141 - 3.153ms returns TRUE
T5548 000:347.150 JLINK_ReadReg(R15 (PC))
T5548 000:347.162 - 0.011ms returns 0x1FFFC000
T5548 000:347.169 JLINK_ClrBPEx(BPHandle = 0x00000009)
T5548 000:347.173 - 0.004ms returns 0x00
T5548 000:347.191 JLINK_ReadReg(R0)
T5548 000:347.196 - 0.004ms returns 0x00000000
T5548 000:347.396 JLINK_WriteMem(0x1FFFC280, 0x180 Bytes, ...)
T5548 000:347.402   Data:  53 56 5F 48 61 6E 64 6C 65 72 0A 00 70 47 70 47 ...
T5548 000:347.410   CPU_WriteMem(384 bytes @ 0x1FFFC280)
T5548 000:350.123 - 2.726ms returns 0x180
T5548 000:350.142 JLINK_WriteMem(0x1FFFC400, 0x80 Bytes, ...)
T5548 000:350.146   Data:  DD FE 18 48 00 68 40 F2 03 11 88 43 40 F2 01 21 ...
T5548 000:350.153   CPU_WriteMem(128 bytes @ 0x1FFFC400)
T5548 000:351.393 - 1.250ms returns 0x80
T5548 000:351.405 JLINK_HasError()
T5548 000:351.410 JLINK_WriteReg(R0, 0x10000800)
T5548 000:351.415 - 0.004ms returns 0
T5548 000:351.420 JLINK_WriteReg(R1, 0x00000200)
T5548 000:351.424 - 0.004ms returns 0
T5548 000:351.430 JLINK_WriteReg(R2, 0x1FFFC280)
T5548 000:351.434 - 0.004ms returns 0
T5548 000:351.438 JLINK_WriteReg(R3, 0x00000000)
T5548 000:351.443 - 0.004ms returns 0
T5548 000:351.447 JLINK_WriteReg(R4, 0x00000000)
T5548 000:351.451 - 0.004ms returns 0
T5548 000:351.456 JLINK_WriteReg(R5, 0x00000000)
T5548 000:351.460 - 0.004ms returns 0
T5548 000:351.465 JLINK_WriteReg(R6, 0x00000000)
T5548 000:351.469 - 0.004ms returns 0
T5548 000:351.473 JLINK_WriteReg(R7, 0x00000000)
T5548 000:351.477 - 0.004ms returns 0
T5548 000:351.482 JLINK_WriteReg(R8, 0x00000000)
T5548 000:351.486 - 0.004ms returns 0
T5548 000:351.491 JLINK_WriteReg(R9, 0x1FFFC26C)
T5548 000:351.495 - 0.004ms returns 0
T5548 000:351.499 JLINK_WriteReg(R10, 0x00000000)
T5548 000:351.503 - 0.004ms returns 0
T5548 000:351.508 JLINK_WriteReg(R11, 0x00000000)
T5548 000:351.512 - 0.004ms returns 0
T5548 000:351.517 JLINK_WriteReg(R12, 0x00000000)
T5548 000:351.521 - 0.004ms returns 0
T5548 000:351.526 JLINK_WriteReg(R13 (SP), 0x1FFFE000)
T5548 000:351.530 - 0.004ms returns 0
T5548 000:351.535 JLINK_WriteReg(R14, 0x1FFFC001)
T5548 000:351.539 - 0.004ms returns 0
T5548 000:351.543 JLINK_WriteReg(R15 (PC), 0x1FFFC1A8)
T5548 000:351.548 - 0.004ms returns 0
T5548 000:351.552 JLINK_WriteReg(XPSR, 0x01000000)
T5548 000:351.556 - 0.004ms returns 0
T5548 000:351.561 JLINK_WriteReg(MSP, 0x1FFFE000)
T5548 000:351.565 - 0.004ms returns 0
T5548 000:351.570 JLINK_WriteReg(PSP, 0x1FFFE000)
T5548 000:351.574 - 0.004ms returns 0
T5548 000:351.578 JLINK_WriteReg(CFBP, 0x00000000)
T5548 000:351.582 - 0.004ms returns 0
T5548 000:351.587 JLINK_SetBPEx(Addr = 0x1FFFC000, Type = 0xFFFFFFF2)
T5548 000:351.592 - 0.004ms returns 0x0000000A
T5548 000:351.597 JLINK_Go()
T5548 000:351.602   CPU_WriteMem(4 bytes @ 0xE0002000)
T5548 000:351.985   CPU_ReadMem(4 bytes @ 0xE0001000)
T5548 000:355.615 - 4.017ms 
T5548 000:355.638 JLINK_IsHalted()
T5548 000:355.972 - 0.332ms returns FALSE
T5548 000:355.981 JLINK_HasError()
T5548 000:360.395 JLINK_IsHalted()
T5548 000:363.618 - 3.222ms returns TRUE
T5548 000:363.626 JLINK_ReadReg(R15 (PC))
T5548 000:363.631 - 0.005ms returns 0x1FFFC000
T5548 000:363.636 JLINK_ClrBPEx(BPHandle = 0x0000000A)
T5548 000:363.640 - 0.004ms returns 0x00
T5548 000:363.645 JLINK_ReadReg(R0)
T5548 000:363.650 - 0.004ms returns 0x00000000
T5548 000:363.970 JLINK_WriteMem(0x1FFFC280, 0x180 Bytes, ...)
T5548 000:363.977   Data:  4F F0 40 70 E1 EE 10 0A 70 47 00 00 2C 0A 00 10 ...
T5548 000:363.986   CPU_WriteMem(384 bytes @ 0x1FFFC280)
T5548 000:366.685 - 2.715ms returns 0x180
T5548 000:366.691 JLINK_WriteMem(0x1FFFC400, 0x80 Bytes, ...)
T5548 000:366.696   Data:  FF FF FF FF FF FF FF FF FF FF FF FF FF FF FF FF ...
T5548 000:366.703   CPU_WriteMem(128 bytes @ 0x1FFFC400)
T5548 000:367.973 - 1.280ms returns 0x80
T5548 000:367.982 JLINK_HasError()
T5548 000:367.987 JLINK_WriteReg(R0, 0x10000A00)
T5548 000:367.995 - 0.007ms returns 0
T5548 000:368.001 JLINK_WriteReg(R1, 0x00000060)
T5548 000:368.005 - 0.004ms returns 0
T5548 000:368.010 JLINK_WriteReg(R2, 0x1FFFC280)
T5548 000:368.014 - 0.004ms returns 0
T5548 000:368.019 JLINK_WriteReg(R3, 0x00000000)
T5548 000:368.023 - 0.004ms returns 0
T5548 000:368.028 JLINK_WriteReg(R4, 0x00000000)
T5548 000:368.032 - 0.004ms returns 0
T5548 000:368.037 JLINK_WriteReg(R5, 0x00000000)
T5548 000:368.041 - 0.004ms returns 0
T5548 000:368.045 JLINK_WriteReg(R6, 0x00000000)
T5548 000:368.050 - 0.004ms returns 0
T5548 000:368.054 JLINK_WriteReg(R7, 0x00000000)
T5548 000:368.059 - 0.004ms returns 0
T5548 000:368.063 JLINK_WriteReg(R8, 0x00000000)
T5548 000:368.068 - 0.004ms returns 0
T5548 000:368.072 JLINK_WriteReg(R9, 0x1FFFC26C)
T5548 000:368.077 - 0.004ms returns 0
T5548 000:368.081 JLINK_WriteReg(R10, 0x00000000)
T5548 000:368.085 - 0.004ms returns 0
T5548 000:368.090 JLINK_WriteReg(R11, 0x00000000)
T5548 000:368.094 - 0.004ms returns 0
T5548 000:368.099 JLINK_WriteReg(R12, 0x00000000)
T5548 000:368.103 - 0.004ms returns 0
T5548 000:368.108 JLINK_WriteReg(R13 (SP), 0x1FFFE000)
T5548 000:368.113 - 0.004ms returns 0
T5548 000:368.117 JLINK_WriteReg(R14, 0x1FFFC001)
T5548 000:368.122 - 0.004ms returns 0
T5548 000:368.126 JLINK_WriteReg(R15 (PC), 0x1FFFC1A8)
T5548 000:368.131 - 0.004ms returns 0
T5548 000:368.136 JLINK_WriteReg(XPSR, 0x01000000)
T5548 000:368.140 - 0.004ms returns 0
T5548 000:368.145 JLINK_WriteReg(MSP, 0x1FFFE000)
T5548 000:368.149 - 0.004ms returns 0
T5548 000:368.153 JLINK_WriteReg(PSP, 0x1FFFE000)
T5548 000:368.158 - 0.004ms returns 0
T5548 000:368.162 JLINK_WriteReg(CFBP, 0x00000000)
T5548 000:368.167 - 0.004ms returns 0
T5548 000:368.172 JLINK_SetBPEx(Addr = 0x1FFFC000, Type = 0xFFFFFFF2)
T5548 000:368.177 - 0.005ms returns 0x0000000B
T5548 000:368.181 JLINK_Go()
T5548 000:368.187   CPU_WriteMem(4 bytes @ 0xE0002000)
T5548 000:368.561   CPU_ReadMem(4 bytes @ 0xE0001000)
T5548 000:371.985 - 3.802ms 
T5548 000:371.995 JLINK_IsHalted()
T5548 000:372.330 - 0.334ms returns FALSE
T5548 000:372.336 JLINK_HasError()
T5548 000:373.477 JLINK_IsHalted()
T5548 000:376.728 - 3.250ms returns TRUE
T5548 000:376.740 JLINK_ReadReg(R15 (PC))
T5548 000:376.747 - 0.005ms returns 0x1FFFC000
T5548 000:376.752 JLINK_ClrBPEx(BPHandle = 0x0000000B)
T5548 000:376.757 - 0.004ms returns 0x00
T5548 000:376.767 JLINK_ReadReg(R0)
T5548 000:376.773 - 0.005ms returns 0x00000000
T5548 000:376.778 JLINK_HasError()
T5548 000:376.783 JLINK_WriteReg(R0, 0x00000002)
T5548 000:376.788 - 0.004ms returns 0
T5548 000:376.793 JLINK_WriteReg(R1, 0x00000060)
T5548 000:376.797 - 0.004ms returns 0
T5548 000:376.802 JLINK_WriteReg(R2, 0x1FFFC280)
T5548 000:376.806 - 0.004ms returns 0
T5548 000:376.811 JLINK_WriteReg(R3, 0x00000000)
T5548 000:376.815 - 0.004ms returns 0
T5548 000:376.820 JLINK_WriteReg(R4, 0x00000000)
T5548 000:376.824 - 0.004ms returns 0
T5548 000:376.829 JLINK_WriteReg(R5, 0x00000000)
T5548 000:376.833 - 0.004ms returns 0
T5548 000:376.837 JLINK_WriteReg(R6, 0x00000000)
T5548 000:376.842 - 0.004ms returns 0
T5548 000:376.846 JLINK_WriteReg(R7, 0x00000000)
T5548 000:376.851 - 0.004ms returns 0
T5548 000:376.855 JLINK_WriteReg(R8, 0x00000000)
T5548 000:376.859 - 0.004ms returns 0
T5548 000:376.864 JLINK_WriteReg(R9, 0x1FFFC26C)
T5548 000:376.868 - 0.004ms returns 0
T5548 000:376.873 JLINK_WriteReg(R10, 0x00000000)
T5548 000:376.877 - 0.004ms returns 0
T5548 000:376.882 JLINK_WriteReg(R11, 0x00000000)
T5548 000:376.886 - 0.004ms returns 0
T5548 000:376.891 JLINK_WriteReg(R12, 0x00000000)
T5548 000:376.895 - 0.004ms returns 0
T5548 000:376.900 JLINK_WriteReg(R13 (SP), 0x1FFFE000)
T5548 000:376.905 - 0.004ms returns 0
T5548 000:376.909 JLINK_WriteReg(R14, 0x1FFFC001)
T5548 000:376.913 - 0.004ms returns 0
T5548 000:376.918 JLINK_WriteReg(R15 (PC), 0x1FFFC180)
T5548 000:376.922 - 0.004ms returns 0
T5548 000:376.927 JLINK_WriteReg(XPSR, 0x01000000)
T5548 000:376.931 - 0.004ms returns 0
T5548 000:376.936 JLINK_WriteReg(MSP, 0x1FFFE000)
T5548 000:376.944 - 0.008ms returns 0
T5548 000:376.949 JLINK_WriteReg(PSP, 0x1FFFE000)
T5548 000:376.953 - 0.004ms returns 0
T5548 000:376.958 JLINK_WriteReg(CFBP, 0x00000000)
T5548 000:376.962 - 0.004ms returns 0
T5548 000:376.967 JLINK_SetBPEx(Addr = 0x1FFFC000, Type = 0xFFFFFFF2)
T5548 000:376.972 - 0.005ms returns 0x0000000C
T5548 000:376.977 JLINK_Go()
T5548 000:376.983   CPU_WriteMem(4 bytes @ 0xE0002000)
T5548 000:377.361   CPU_ReadMem(4 bytes @ 0xE0001000)
T5548 000:380.764 - 3.786ms 
T5548 000:380.780 JLINK_IsHalted()
T5548 000:383.918 - 3.138ms returns TRUE
T5548 000:383.924 JLINK_ReadReg(R15 (PC))
T5548 000:383.929 - 0.004ms returns 0x1FFFC000
T5548 000:383.934 JLINK_ClrBPEx(BPHandle = 0x0000000C)
T5548 000:383.938 - 0.004ms returns 0x00
T5548 000:383.943 JLINK_ReadReg(R0)
T5548 000:383.947 - 0.004ms returns 0x00000000
T5548 000:439.740 JLINK_WriteMem(0x1FFFC000, 0x280 Bytes, ...)
T5548 000:439.752   Data:  00 BE 0A E0 0D 78 2D 06 68 40 08 24 40 00 00 D3 ...
T5548 000:439.767   CPU_WriteMem(640 bytes @ 0x1FFFC000)
T5548 000:443.863 - 4.123ms returns 0x280
T5548 000:443.898 JLINK_HasError()
T5548 000:443.905 JLINK_WriteReg(R0, 0x10000000)
T5548 000:443.912 - 0.007ms returns 0
T5548 000:443.917 JLINK_WriteReg(R1, 0x00B71B00)
T5548 000:443.921 - 0.004ms returns 0
T5548 000:443.926 JLINK_WriteReg(R2, 0x00000003)
T5548 000:443.931 - 0.004ms returns 0
T5548 000:443.936 JLINK_WriteReg(R3, 0x00000000)
T5548 000:443.940 - 0.004ms returns 0
T5548 000:443.945 JLINK_WriteReg(R4, 0x00000000)
T5548 000:443.950 - 0.004ms returns 0
T5548 000:443.955 JLINK_WriteReg(R5, 0x00000000)
T5548 000:443.959 - 0.004ms returns 0
T5548 000:443.964 JLINK_WriteReg(R6, 0x00000000)
T5548 000:443.968 - 0.004ms returns 0
T5548 000:443.973 JLINK_WriteReg(R7, 0x00000000)
T5548 000:443.978 - 0.004ms returns 0
T5548 000:443.983 JLINK_WriteReg(R8, 0x00000000)
T5548 000:443.987 - 0.004ms returns 0
T5548 000:443.992 JLINK_WriteReg(R9, 0x1FFFC26C)
T5548 000:443.996 - 0.004ms returns 0
T5548 000:444.001 JLINK_WriteReg(R10, 0x00000000)
T5548 000:444.006 - 0.004ms returns 0
T5548 000:444.011 JLINK_WriteReg(R11, 0x00000000)
T5548 000:444.015 - 0.004ms returns 0
T5548 000:444.021 JLINK_WriteReg(R12, 0x00000000)
T5548 000:444.026 - 0.004ms returns 0
T5548 000:444.030 JLINK_WriteReg(R13 (SP), 0x1FFFE000)
T5548 000:444.036 - 0.005ms returns 0
T5548 000:444.041 JLINK_WriteReg(R14, 0x1FFFC001)
T5548 000:444.045 - 0.004ms returns 0
T5548 000:444.050 JLINK_WriteReg(R15 (PC), 0x1FFFC050)
T5548 000:444.054 - 0.004ms returns 0
T5548 000:444.059 JLINK_WriteReg(XPSR, 0x01000000)
T5548 000:444.064 - 0.004ms returns 0
T5548 000:444.068 JLINK_WriteReg(MSP, 0x1FFFE000)
T5548 000:444.073 - 0.004ms returns 0
T5548 000:444.077 JLINK_WriteReg(PSP, 0x1FFFE000)
T5548 000:444.082 - 0.004ms returns 0
T5548 000:444.087 JLINK_WriteReg(CFBP, 0x00000000)
T5548 000:444.091 - 0.004ms returns 0
T5548 000:444.096 JLINK_SetBPEx(Addr = 0x1FFFC000, Type = 0xFFFFFFF2)
T5548 000:444.102 - 0.006ms returns 0x0000000D
T5548 000:444.107 JLINK_Go()
T5548 000:444.115   CPU_WriteMem(4 bytes @ 0xE0002000)
T5548 000:444.585   CPU_ReadMem(4 bytes @ 0xE0001000)
T5548 000:448.110 - 4.001ms 
T5548 000:448.120 JLINK_IsHalted()
T5548 000:451.275 - 3.155ms returns TRUE
T5548 000:451.283 JLINK_ReadReg(R15 (PC))
T5548 000:451.288 - 0.004ms returns 0x1FFFC000
T5548 000:451.312 JLINK_ClrBPEx(BPHandle = 0x0000000D)
T5548 000:451.318 - 0.006ms returns 0x00
T5548 000:451.323 JLINK_ReadReg(R0)
T5548 000:451.329 - 0.005ms returns 0x00000000
T5548 000:451.333 JLINK_HasError()
T5548 000:451.340 JLINK_WriteReg(R0, 0xFFFFFFFF)
T5548 000:451.347 - 0.008ms returns 0
T5548 000:451.354 JLINK_WriteReg(R1, 0x10000000)
T5548 000:451.360 - 0.006ms returns 0
T5548 000:451.366 JLINK_WriteReg(R2, 0x00000A60)
T5548 000:451.372 - 0.005ms returns 0
T5548 000:451.379 JLINK_WriteReg(R3, 0x04C11DB7)
T5548 000:451.385 - 0.006ms returns 0
T5548 000:451.411 JLINK_WriteReg(R4, 0x00000000)
T5548 000:451.417 - 0.006ms returns 0
T5548 000:451.439 JLINK_WriteReg(R5, 0x00000000)
T5548 000:451.445 - 0.006ms returns 0
T5548 000:451.453 JLINK_WriteReg(R6, 0x00000000)
T5548 000:451.457 - 0.004ms returns 0
T5548 000:451.462 JLINK_WriteReg(R7, 0x00000000)
T5548 000:451.467 - 0.004ms returns 0
T5548 000:451.472 JLINK_WriteReg(R8, 0x00000000)
T5548 000:451.476 - 0.004ms returns 0
T5548 000:451.481 JLINK_WriteReg(R9, 0x1FFFC26C)
T5548 000:451.485 - 0.004ms returns 0
T5548 000:451.490 JLINK_WriteReg(R10, 0x00000000)
T5548 000:451.495 - 0.004ms returns 0
T5548 000:451.500 JLINK_WriteReg(R11, 0x00000000)
T5548 000:451.504 - 0.004ms returns 0
T5548 000:451.509 JLINK_WriteReg(R12, 0x00000000)
T5548 000:451.513 - 0.004ms returns 0
T5548 000:451.518 JLINK_WriteReg(R13 (SP), 0x1FFFE000)
T5548 000:451.524 - 0.006ms returns 0
T5548 000:451.529 JLINK_WriteReg(R14, 0x1FFFC001)
T5548 000:451.533 - 0.004ms returns 0
T5548 000:451.538 JLINK_WriteReg(R15 (PC), 0x1FFFC002)
T5548 000:451.542 - 0.004ms returns 0
T5548 000:451.547 JLINK_WriteReg(XPSR, 0x01000000)
T5548 000:451.551 - 0.004ms returns 0
T5548 000:451.556 JLINK_WriteReg(MSP, 0x1FFFE000)
T5548 000:451.560 - 0.004ms returns 0
T5548 000:451.564 JLINK_WriteReg(PSP, 0x1FFFE000)
T5548 000:451.569 - 0.004ms returns 0
T5548 000:451.573 JLINK_WriteReg(CFBP, 0x00000000)
T5548 000:451.578 - 0.004ms returns 0
T5548 000:451.583 JLINK_SetBPEx(Addr = 0x1FFFC000, Type = 0xFFFFFFF2)
T5548 000:451.587 - 0.004ms returns 0x0000000E
T5548 000:451.592 JLINK_Go()
T5548 000:451.597   CPU_WriteMem(4 bytes @ 0xE0002000)
T5548 000:451.985   CPU_ReadMem(4 bytes @ 0xE0001000)
T5548 000:455.489 - 3.896ms 
T5548 000:455.501 JLINK_IsHalted()
T5548 000:455.846 - 0.343ms returns FALSE
T5548 000:455.873 JLINK_HasError()
T5548 000:459.524 JLINK_IsHalted()
T5548 000:459.901 - 0.376ms returns FALSE
T5548 000:459.908 JLINK_HasError()
